#################################################################
# Logging Datei. Hier werden alle Log-Ausgaben des Programms gespeichert.
#################################################################2026-04-29 02:47:03,899 - discord.client - WARNING - PyNaCl is not installed, voice will NOT be supported
2026-04-29 02:47:03,899 - discord.client - WARNING - davey is not installed, voice will NOT be supported
2026-04-29 02:47:03,900 - __main__ - INFO - ============================================================
2026-04-29 02:47:03,900 - __main__ - INFO - Starting Async Modbus-Discord Communication
2026-04-29 02:47:03,901 - __main__ - INFO - ============================================================
2026-04-29 02:47:03,901 - __main__ - INFO - All tasks started successfully
2026-04-29 02:47:03,901 - __main__ - INFO - System running. Press Ctrl+C to stop.
2026-04-29 02:47:03,901 - modbus_client - INFO - Attempting to reconnect to Modbus client...
2026-04-29 02:47:03,901 - discord.client - INFO - logging in using static token
2026-04-29 02:47:04,026 - modbus_client - INFO - Connected to Modbus client at 192.168.0.7:502
2026-04-29 02:47:04,041 - modbus_client - INFO - Watchdog disabled
2026-04-29 02:47:05,080 - discord.gateway - INFO - Shard ID None has connected to Gateway (Session ID: aa8dd0e57ef7c162cfb2b64fc9d9e59f).
2026-04-29 02:47:07,098 - discord_bot - INFO - Der Bot ist jetzt online
2026-04-29 13:27:39,357 - discord.client - WARNING - PyNaCl is not installed, voice will NOT be supported
2026-04-29 13:27:39,358 - discord.client - WARNING - davey is not installed, voice will NOT be supported
2026-04-29 13:27:39,360 - __main__ - INFO - ============================================================
2026-04-29 13:27:39,360 - __main__ - INFO - Starting Async Modbus-Discord Communication
2026-04-29 13:27:39,360 - __main__ - INFO - ============================================================
2026-04-29 13:27:39,360 - __main__ - INFO - All tasks started successfully
2026-04-29 13:27:39,361 - __main__ - INFO - System running. Press Ctrl+C to stop.
2026-04-29 13:27:39,361 - modbus_client - INFO - Attempting to reconnect to Modbus client...
2026-04-29 13:27:39,362 - discord.client - INFO - logging in using static token
2026-04-29 13:27:39,542 - modbus_client - INFO - Connected to Modbus client at 192.168.0.7:502
2026-04-29 13:27:39,556 - modbus_client - INFO - Watchdog disabled
2026-04-29 13:27:40,879 - discord.gateway - INFO - Shard ID None has connected to Gateway (Session ID: bcd1e62d048f1f6dab2b03201d36957c).
2026-04-29 13:27:42,900 - discord_bot - INFO - Der Bot ist jetzt online
2026-04-29 13:28:31,924 - pymodbus.logging - ERROR - Cancel send, because not connected!
>>>>> recv: 0x4 0xd 0x0 0x0 0x0 0x4 0x1 0x2 0x1 0x0 extra data: 
>>>>> send: 0x4 0xe 0x0 0x0 0x0 0x6 0x1 0x6 0x8 0x0 0x0 0x1
>>>>> recv: 0x4 0xe 0x0 0x0 0x0 0x6 0x1 0x6 0x8 0x0 0x0 0x1 extra data: 
>>>>> send: 0x4 0xf 0x0 0x0 0x0 0x6 0x1 0x2 0x0 0x0 0x0 0x1
>>>>> recv: 0x4 0xf 0x0 0x0 0x0 0x4 0x1 0x2 0x1 0x0 extra data: 
>>>>> send: 0x4 0x10 0x0 0x0 0x0 0x6 0x1 0x6 0x8 0x0 0x0 0x1
>>>>> recv: 0x4 0x10 0x0 0x0 0x0 0x6 0x1 0x6 0x8 0x0 0x0 0x1 extra data: 
>>>>> send: 0x4 0x11 0x0 0x0 0x0 0x6 0x1 0x2 0x0 0x0 0x0 0x1
>>>>> recv: 0x4 0x11 0x0 0x0 0x0 0x4 0x1 0x2 0x1 0x0 extra data: 
>>>>> send: 0x4 0x12 0x0 0x0 0x0 0x6 0x1 0x6 0x8 0x0 0x0 0x1
>>>>> recv: 0x4 0x12 0x0 0x0 0x0 0x6 0x1 0x6 0x8 0x0 0x0 0x1 extra data: 
>>>>> send: 0x4 0x13 0x0 0x0 0x0 0x6 0x1 0x2 0x0 0x0 0x0 0x1
>>>>> recv: 0x4 0x13 0x0 0x0 0x0 0x4 0x1 0x2 0x1 0x0 extra data: 
>>>>> send: 0x4 0x14 0x0 0x0 0x0 0x6 0x1 0x6 0x8 0x0 0x0 0x1
>>>>> recv: 0x4 0x14 0x0 0x0 0x0 0x6 0x1 0x6 0x8 0x0 0x0 0x1 extra data: 
>>>>> send: 0x4 0x15 0x0 0x0 0x0 0x6 0x1 0x2 0x0 0x0 0x0 0x1
>>>>> recv: 0x4 0x15 0x0 0x0 0x0 0x4 0x1 0x2 0x1 0x0 extra data: 
>>>>> send: 0x4 0x16 0x0 0x0 0x0 0x6 0x1 0x6 0x8 0x0 0x0 0x1
>>>>> recv: 0x4 0x16 0x0 0x0 0x0 0x6 0x1 0x6 0x8 0x0 0x0 0x1 extra data: 
>>>>> send: 0x4 0x17 0x0 0x0 0x0 0x6 0x1 0x2 0x0 0x0 0x0 0x1
2026-04-29 13:28:32,540 - pymodbus.logging - WARNING - Failed to connect 
2026-04-29 13:28:33,927 - modbus_client - ERROR - Error reading inputs: Modbus Error: [Input/Output] Request cancelled outside library.
2026-04-29 13:28:33,927 - modbus_client - WARNING - Ping failed, connection may be lost
2026-04-29 13:28:33,927 - modbus_client - ERROR - Error writing outputs: Modbus Error: [Connection] Not connected[AsyncModbusTcpClient 192.168.0.7:502]
2026-04-29 13:28:33,928 - modbus_client - WARNING - Failed to maintain output image
2026-04-29 13:28:33,991 - modbus_client - INFO - Attempting to reconnect to Modbus client...
2026-04-29 13:28:35,755 - pymodbus.logging - WARNING - Repeating....
2026-04-29 13:28:37,000 - pymodbus.logging - WARNING - Failed to connect 
2026-04-29 13:28:37,108 - modbus_client - ERROR - Failed to connect to Modbus client: Modbus Error: Connection failed
2026-04-29 13:28:37,159 - modbus_client - INFO - Attempting to reconnect to Modbus client...
2026-04-29 13:28:39,167 - pymodbus.logging - WARNING - Failed to connect 
2026-04-29 13:28:40,165 - pymodbus.logging - WARNING - Failed to connect 
2026-04-29 13:28:40,278 - modbus_client - ERROR - Failed to connect to Modbus client: Modbus Error: Connection failed
2026-04-29 13:28:40,339 - modbus_client - INFO - Attempting to reconnect to Modbus client...
2026-04-29 13:28:42,983 - pymodbus.logging - WARNING - Failed to connect 
2026-04-29 13:28:43,354 - pymodbus.logging - WARNING - Failed to connect 
2026-04-29 13:28:43,457 - modbus_client - ERROR - Failed to connect to Modbus client: Modbus Error: Connection failed
2026-04-29 13:28:43,508 - modbus_client - INFO - Attempting to reconnect to Modbus client...
2026-04-29 13:28:46,520 - pymodbus.logging - WARNING - Failed to connect 
2026-04-29 13:28:46,623 - modbus_client - ERROR - Failed to connect to Modbus client: Modbus Error: Connection failed
2026-04-29 13:28:46,675 - modbus_client - INFO - Attempting to reconnect to Modbus client...
2026-04-29 13:28:46,807 - modbus_client - INFO - Connected to Modbus client at 192.168.0.7:502
2026-04-29 13:28:46,823 - modbus_client - INFO - Watchdog disabled
2026-04-29 13:28:47,592 - pymodbus.logging - WARNING - Failed to connect 
2026-04-29 13:30:27,900 - pymodbus.logging - ERROR - Cancel send, because not connected!
>>>>> recv: 0x7 0xdb 0x0 0x0 0x0 0x6 0x1 0x6 0x8 0x0 0x0 0x2 extra data: 
>>>>> send: 0x7 0xdc 0x0 0x0 0x0 0x6 0x1 0x2 0x0 0x0 0x0 0x1
>>>>> recv: 0x7 0xdc 0x0 0x0 0x0 0x4 0x1 0x2 0x1 0x0 extra data: 
>>>>> send: 0x7 0xdd 0x0 0x0 0x0 0x6 0x1 0x6 0x8 0x0 0x0 0x2
>>>>> recv: 0x7 0xdd 0x0 0x0 0x0 0x6 0x1 0x6 0x8 0x0 0x0 0x2 extra data: 
>>>>> send: 0x7 0xde 0x0 0x0 0x0 0x6 0x1 0x2 0x0 0x0 0x0 0x1
>>>>> recv: 0x7 0xde 0x0 0x0 0x0 0x4 0x1 0x2 0x1 0x0 extra data: 
>>>>> send: 0x7 0xdf 0x0 0x0 0x0 0x6 0x1 0x6 0x8 0x0 0x0 0x2
>>>>> recv: 0x7 0xdf 0x0 0x0 0x0 0x6 0x1 0x6 0x8 0x0 0x0 0x2 extra data: 
>>>>> send: 0x7 0xe0 0x0 0x0 0x0 0x6 0x1 0x2 0x0 0x0 0x0 0x1
>>>>> recv: 0x7 0xe0 0x0 0x0 0x0 0x4 0x1 0x2 0x1 0x0 extra data: 
>>>>> send: 0x7 0xe1 0x0 0x0 0x0 0x6 0x1 0x6 0x8 0x0 0x0 0x2
>>>>> recv: 0x7 0xe1 0x0 0x0 0x0 0x6 0x1 0x6 0x8 0x0 0x0 0x2 extra data: 
>>>>> send: 0x7 0xe2 0x0 0x0 0x0 0x6 0x1 0x2 0x0 0x0 0x0 0x1
>>>>> recv: 0x7 0xe2 0x0 0x0 0x0 0x4 0x1 0x2 0x1 0x0 extra data: 
>>>>> send: 0x7 0xe3 0x0 0x0 0x0 0x6 0x1 0x6 0x8 0x0 0x0 0x2
>>>>> recv: 0x7 0xe3 0x0 0x0 0x0 0x6 0x1 0x6 0x8 0x0 0x0 0x2 extra data: 
>>>>> send: 0x7 0xe4 0x0 0x0 0x0 0x6 0x1 0x2 0x0 0x0 0x0 0x1
>>>>> recv: 0x7 0xe4 0x0 0x0 0x0 0x4 0x1 0x2 0x1 0x0 extra data: 
>>>>> send: 0x7 0xe5 0x0 0x0 0x0 0x6 0x1 0x6 0x8 0x0 0x0 0x2
2026-04-29 13:30:28,604 - pymodbus.logging - WARNING - Failed to connect 
2026-04-29 13:30:28,604 - pymodbus.logging - WARNING - Repeating....
2026-04-29 13:30:29,904 - modbus_client - ERROR - Error writing outputs: Modbus Error: [Input/Output] Request cancelled outside library.
2026-04-29 13:30:29,905 - modbus_client - WARNING - Failed to maintain output image
2026-04-29 13:30:29,956 - modbus_client - INFO - Attempting to reconnect to Modbus client...
2026-04-29 13:30:31,813 - pymodbus.logging - WARNING - Failed to connect 
2026-04-29 13:30:31,814 - pymodbus.logging - WARNING - Failed to connect 
2026-04-29 13:30:32,971 - pymodbus.logging - WARNING - Failed to connect 
2026-04-29 13:30:33,072 - modbus_client - ERROR - Failed to connect to Modbus client: Modbus Error: Connection failed
2026-04-29 13:30:33,137 - modbus_client - INFO - Attempting to reconnect to Modbus client...
2026-04-29 13:30:35,219 - pymodbus.logging - WARNING - Failed to connect 
2026-04-29 13:30:35,220 - pymodbus.logging - WARNING - Failed to connect 
2026-04-29 13:30:36,139 - pymodbus.logging - WARNING - Failed to connect 
2026-04-29 13:30:36,239 - modbus_client - ERROR - Failed to connect to Modbus client: Modbus Error: Connection failed
2026-04-29 13:30:36,303 - modbus_client - INFO - Attempting to reconnect to Modbus client...
2026-04-29 13:30:39,031 - pymodbus.logging - WARNING - Failed to connect 
2026-04-29 13:30:39,033 - pymodbus.logging - WARNING - Failed to connect 
2026-04-29 13:30:39,326 - pymodbus.logging - WARNING - Failed to connect 
2026-04-29 13:30:39,436 - modbus_client - ERROR - Failed to connect to Modbus client: Modbus Error: Connection failed
2026-04-29 13:30:39,502 - modbus_client - INFO - Attempting to reconnect to Modbus client...
2026-04-29 13:30:42,509 - pymodbus.logging - WARNING - Failed to connect 
2026-04-29 13:30:42,619 - modbus_client - ERROR - Failed to connect to Modbus client: Modbus Error: Connection failed
2026-04-29 13:30:42,671 - modbus_client - INFO - Attempting to reconnect to Modbus client...
2026-04-29 13:30:43,637 - pymodbus.logging - WARNING - Failed to connect 
2026-04-29 13:30:43,638 - pymodbus.logging - WARNING - Failed to connect 
2026-04-29 13:30:45,357 - modbus_client - INFO - Modbus client task cancelled
2026-04-29 13:30:45,358 - modbus_client - INFO - Already disconnected from Modbus client
2026-04-29 13:30:45,360 - __main__ - INFO - System cancelled
2026-04-29 13:30:45,360 - __main__ - INFO - Shutting down system
